CITIFILE A.01.01
# File generated on Wed Nov  6 22:00:14 2024

NAME VemEngine_DC 

CONSTANT NBR_OP_PORTS 9
#eesof Port[1] U3
#eesof Port[2] U1
#eesof Port[3] C30
#eesof Port[4] C28
#eesof Port[5] C27
#eesof Port[6] C26
#eesof Port[7] C25
#eesof Port[8] C14
#eesof Port[9] C10

VAR freq MAG 1

DATA Y[1,1] RI
DATA Y[1,2] RI
DATA Y[1,3] RI
DATA Y[1,4] RI
DATA Y[1,5] RI
DATA Y[1,6] RI
DATA Y[1,7] RI
DATA Y[1,8] RI
DATA Y[1,9] RI
DATA Y[2,1] RI
DATA Y[2,2] RI
DATA Y[2,3] RI
DATA Y[2,4] RI
DATA Y[2,5] RI
DATA Y[2,6] RI
DATA Y[2,7] RI
DATA Y[2,8] RI
DATA Y[2,9] RI
DATA Y[3,1] RI
DATA Y[3,2] RI
DATA Y[3,3] RI
DATA Y[3,4] RI
DATA Y[3,5] RI
DATA Y[3,6] RI
DATA Y[3,7] RI
DATA Y[3,8] RI
DATA Y[3,9] RI
DATA Y[4,1] RI
DATA Y[4,2] RI
DATA Y[4,3] RI
DATA Y[4,4] RI
DATA Y[4,5] RI
DATA Y[4,6] RI
DATA Y[4,7] RI
DATA Y[4,8] RI
DATA Y[4,9] RI
DATA Y[5,1] RI
DATA Y[5,2] RI
DATA Y[5,3] RI
DATA Y[5,4] RI
DATA Y[5,5] RI
DATA Y[5,6] RI
DATA Y[5,7] RI
DATA Y[5,8] RI
DATA Y[5,9] RI
DATA Y[6,1] RI
DATA Y[6,2] RI
DATA Y[6,3] RI
DATA Y[6,4] RI
DATA Y[6,5] RI
DATA Y[6,6] RI
DATA Y[6,7] RI
DATA Y[6,8] RI
DATA Y[6,9] RI
DATA Y[7,1] RI
DATA Y[7,2] RI
DATA Y[7,3] RI
DATA Y[7,4] RI
DATA Y[7,5] RI
DATA Y[7,6] RI
DATA Y[7,7] RI
DATA Y[7,8] RI
DATA Y[7,9] RI
DATA Y[8,1] RI
DATA Y[8,2] RI
DATA Y[8,3] RI
DATA Y[8,4] RI
DATA Y[8,5] RI
DATA Y[8,6] RI
DATA Y[8,7] RI
DATA Y[8,8] RI
DATA Y[8,9] RI
DATA Y[9,1] RI
DATA Y[9,2] RI
DATA Y[9,3] RI
DATA Y[9,4] RI
DATA Y[9,5] RI
DATA Y[9,6] RI
DATA Y[9,7] RI
DATA Y[9,8] RI
DATA Y[9,9] RI
DATA S[1,1] RI
DATA S[1,2] RI
DATA S[1,3] RI
DATA S[1,4] RI
DATA S[1,5] RI
DATA S[1,6] RI
DATA S[1,7] RI
DATA S[1,8] RI
DATA S[1,9] RI
DATA S[2,1] RI
DATA S[2,2] RI
DATA S[2,3] RI
DATA S[2,4] RI
DATA S[2,5] RI
DATA S[2,6] RI
DATA S[2,7] RI
DATA S[2,8] RI
DATA S[2,9] RI
DATA S[3,1] RI
DATA S[3,2] RI
DATA S[3,3] RI
DATA S[3,4] RI
DATA S[3,5] RI
DATA S[3,6] RI
DATA S[3,7] RI
DATA S[3,8] RI
DATA S[3,9] RI
DATA S[4,1] RI
DATA S[4,2] RI
DATA S[4,3] RI
DATA S[4,4] RI
DATA S[4,5] RI
DATA S[4,6] RI
DATA S[4,7] RI
DATA S[4,8] RI
DATA S[4,9] RI
DATA S[5,1] RI
DATA S[5,2] RI
DATA S[5,3] RI
DATA S[5,4] RI
DATA S[5,5] RI
DATA S[5,6] RI
DATA S[5,7] RI
DATA S[5,8] RI
DATA S[5,9] RI
DATA S[6,1] RI
DATA S[6,2] RI
DATA S[6,3] RI
DATA S[6,4] RI
DATA S[6,5] RI
DATA S[6,6] RI
DATA S[6,7] RI
DATA S[6,8] RI
DATA S[6,9] RI
DATA S[7,1] RI
DATA S[7,2] RI
DATA S[7,3] RI
DATA S[7,4] RI
DATA S[7,5] RI
DATA S[7,6] RI
DATA S[7,7] RI
DATA S[7,8] RI
DATA S[7,9] RI
DATA S[8,1] RI
DATA S[8,2] RI
DATA S[8,3] RI
DATA S[8,4] RI
DATA S[8,5] RI
DATA S[8,6] RI
DATA S[8,7] RI
DATA S[8,8] RI
DATA S[8,9] RI
DATA S[9,1] RI
DATA S[9,2] RI
DATA S[9,3] RI
DATA S[9,4] RI
DATA S[9,5] RI
DATA S[9,6] RI
DATA S[9,7] RI
DATA S[9,8] RI
DATA S[9,9] RI
DATA PORTZ[1] RI
DATA PORTZ[2] RI
DATA PORTZ[3] RI
DATA PORTZ[4] RI
DATA PORTZ[5] RI
DATA PORTZ[6] RI
DATA PORTZ[7] RI
DATA PORTZ[8] RI
DATA PORTZ[9] RI

VAR_LIST_BEGIN
  0
VAR_LIST_END

# Y[1,1]
BEGIN
  1988.58070494135, 0.0
END
# Y[1,2]
BEGIN
  -12.42055118876123, 0.0
END
# Y[1,3]
BEGIN
  -1921.968343335826, 0.0
END
# Y[1,4]
BEGIN
  -1.002566634145144, 0.0
END
# Y[1,5]
BEGIN
  -3.547134545874336, 0.0
END
# Y[1,6]
BEGIN
  -45.97062659525599, 0.0
END
# Y[1,7]
BEGIN
  -0.5241482389469223, 0.0
END
# Y[1,8]
BEGIN
  -2.928867359781687, 0.0
END
# Y[1,9]
BEGIN
  -0.218467042300153, 0.0
END
# Y[2,1]
BEGIN
  -12.42055118876123, 0.0
END
# Y[2,2]
BEGIN
  2766.517972497709, 0.0
END
# Y[2,3]
BEGIN
  -93.17296837941959, 0.0
END
# Y[2,4]
BEGIN
  -306.1883724054853, 0.0
END
# Y[2,5]
BEGIN
  -473.4589016092291, 0.0
END
# Y[2,6]
BEGIN
  -854.3812025730533, 0.0
END
# Y[2,7]
BEGIN
  -208.4417134588808, 0.0
END
# Y[2,8]
BEGIN
  -507.7175631772328, 0.0
END
# Y[2,9]
BEGIN
  -310.7366997031851, 0.0
END
# Y[3,1]
BEGIN
  -1921.968343335826, 0.0
END
# Y[3,2]
BEGIN
  -93.17296837941959, 0.0
END
# Y[3,3]
BEGIN
  2421.703734386442, 0.0
END
# Y[3,4]
BEGIN
  -7.520608546246722, 0.0
END
# Y[3,5]
BEGIN
  -26.60798189823229, 0.0
END
# Y[3,6]
BEGIN
  -344.8928410539559, 0.0
END
# Y[3,7]
BEGIN
  -3.93190732323327, 0.0
END
# Y[3,8]
BEGIN
  -21.97024944989546, 0.0
END
# Y[3,9]
BEGIN
  -1.638834400029774, 0.0
END
# Y[4,1]
BEGIN
  -1.002566634145144, 0.0
END
# Y[4,2]
BEGIN
  -306.1883724054853, 0.0
END
# Y[4,3]
BEGIN
  -7.520608546246722, 0.0
END
# Y[4,4]
BEGIN
  392.6427385160957, 0.0
END
# Y[4,5]
BEGIN
  -21.846683487246, 0.0
END
# Y[4,6]
BEGIN
  -30.65072969690549, 0.0
END
# Y[4,7]
BEGIN
  -2.106501626945056, 0.0
END
# Y[4,8]
BEGIN
  -22.44927797676222, 0.0
END
# Y[4,9]
BEGIN
  -0.877998143620258, 0.0
END
# Y[5,1]
BEGIN
  -3.547134545874336, 0.0
END
# Y[5,2]
BEGIN
  -473.4589016092291, 0.0
END
# Y[5,3]
BEGIN
  -26.60798189823229, 0.0
END
# Y[5,4]
BEGIN
  -21.846683487246, 0.0
END
# Y[5,5]
BEGIN
  2736.988435422265, 0.0
END
# Y[5,6]
BEGIN
  -102.8153425298159, 0.0
END
# Y[5,7]
BEGIN
  -4.983405865815356, 0.0
END
# Y[5,8]
BEGIN
  -2101.651882367139, 0.0
END
# Y[5,9]
BEGIN
  -2.07710311912229, 0.0
END
# Y[6,1]
BEGIN
  -45.97062659525599, 0.0
END
# Y[6,2]
BEGIN
  -854.3812025730533, 0.0
END
# Y[6,3]
BEGIN
  -344.8928410539559, 0.0
END
# Y[6,4]
BEGIN
  -30.65072969690549, 0.0
END
# Y[6,5]
BEGIN
  -102.8153425298159, 0.0
END
# Y[6,6]
BEGIN
  1488.187884966721, 0.0
END
# Y[6,7]
BEGIN
  -16.73119614859285, 0.0
END
# Y[6,8]
BEGIN
  -85.77231816768295, 0.0
END
# Y[6,9]
BEGIN
  -6.973628202862693, 0.0
END
# Y[7,1]
BEGIN
  -0.5241482389469223, 0.0
END
# Y[7,2]
BEGIN
  -208.4417134588808, 0.0
END
# Y[7,3]
BEGIN
  -3.93190732323327, 0.0
END
# Y[7,4]
BEGIN
  -2.106501626945056, 0.0
END
# Y[7,5]
BEGIN
  -4.983405865815356, 0.0
END
# Y[7,6]
BEGIN
  -16.73119614859285, 0.0
END
# Y[7,7]
BEGIN
  296.008419858184, 0.0
END
# Y[7,8]
BEGIN
  -4.469791917293886, 0.0
END
# Y[7,9]
BEGIN
  -54.81975527883344, 0.0
END
# Y[8,1]
BEGIN
  -2.928867359781687, 0.0
END
# Y[8,2]
BEGIN
  -507.7175631772328, 0.0
END
# Y[8,3]
BEGIN
  -21.97024944989546, 0.0
END
# Y[8,4]
BEGIN
  -22.44927797676222, 0.0
END
# Y[8,5]
BEGIN
  -2101.651882367139, 0.0
END
# Y[8,6]
BEGIN
  -85.77231816768295, 0.0
END
# Y[8,7]
BEGIN
  -4.469791917293886, 0.0
END
# Y[8,8]
BEGIN
  2748.822977225313, 0.0
END
# Y[8,9]
BEGIN
  -1.863026809140491, 0.0
END
# Y[9,1]
BEGIN
  -0.218467042300153, 0.0
END
# Y[9,2]
BEGIN
  -310.7366997031851, 0.0
END
# Y[9,3]
BEGIN
  -1.638834400029774, 0.0
END
# Y[9,4]
BEGIN
  -0.877998143620258, 0.0
END
# Y[9,5]
BEGIN
  -2.07710311912229, 0.0
END
# Y[9,6]
BEGIN
  -6.973628202862693, 0.0
END
# Y[9,7]
BEGIN
  -54.81975527883344, 0.0
END
# Y[9,8]
BEGIN
  -1.863026809140491, 0.0
END
# Y[9,9]
BEGIN
  379.2055126991284, 0.0
END

# S[1,1]
BEGIN
  -0.777712263413993, 0.0
END
# S[1,2]
BEGIN
  0.2222103380778955, 0.0
END
# S[1,3]
BEGIN
  0.2222716339215783, 0.0
END
# S[1,4]
BEGIN
  0.2222009581676211, 0.0
END
# S[1,5]
BEGIN
  0.2222075747422233, 0.0
END
# S[1,6]
BEGIN
  0.2222231551971456, 0.0
END
# S[1,7]
BEGIN
  0.222194337302828, 0.0
END
# S[1,8]
BEGIN
  0.2222074691046458, 0.0
END
# S[1,9]
BEGIN
  0.2221968001149736, 0.0
END
# S[2,1]
BEGIN
  0.2222103380778955, 0.0
END
# S[2,2]
BEGIN
  -0.7777631343369649, 0.0
END
# S[2,3]
BEGIN
  0.222212053972263, 0.0
END
# S[2,4]
BEGIN
  0.2222228042426297, 0.0
END
# S[2,5]
BEGIN
  0.2222264570630044, 0.0
END
# S[2,6]
BEGIN
  0.2222254197659375, 0.0
END
# S[2,7]
BEGIN
  0.2222176234334654, 0.0
END
# S[2,8]
BEGIN
  0.2222265507347698, 0.0
END
# S[2,9]
BEGIN
  0.2222218902660416, 0.0
END
# S[3,1]
BEGIN
  0.2222716339215783, 0.0
END
# S[3,2]
BEGIN
  0.222212053972263, 0.0
END
# S[3,3]
BEGIN
  -0.7777242744726447, 0.0
END
# S[3,4]
BEGIN
  0.2222026739918714, 0.0
END
# S[3,5]
BEGIN
  0.2222092906116382, 0.0
END
# S[3,6]
BEGIN
  0.2222248712196562, 0.0
END
# S[3,7]
BEGIN
  0.2221960530780205, 0.0
END
# S[3,8]
BEGIN
  0.2222091849728063, 0.0
END
# S[3,9]
BEGIN
  0.2221985159072339, 0.0
END
# S[4,1]
BEGIN
  0.2222009581676211, 0.0
END
# S[4,2]
BEGIN
  0.2222228042426297, 0.0
END
# S[4,3]
BEGIN
  0.2222026739918714, 0.0
END
# S[4,4]
BEGIN
  -0.7776884834652238, 0.0
END
# S[4,5]
BEGIN
  0.2222167415069758, 0.0
END
# S[4,6]
BEGIN
  0.222215271386478, 0.0
END
# S[4,7]
BEGIN
  0.2222048284640739, 0.0
END
# S[4,8]
BEGIN
  0.2222168183584028, 0.0
END
# S[4,9]
BEGIN
  0.2222083905657426, 0.0
END
# S[5,1]
BEGIN
  0.2222075747422233, 0.0
END
# S[5,2]
BEGIN
  0.2222264570630044, 0.0
END
# S[5,3]
BEGIN
  0.2222092906116382, 0.0
END
# S[5,4]
BEGIN
  0.2222167415069758, 0.0
END
# S[5,5]
BEGIN
  -0.777747121246243, 0.0
END
# S[5,6]
BEGIN
  0.2222213162780964, 0.0
END
# S[5,7]
BEGIN
  0.2222089066017539, 0.0
END
# S[5,8]
BEGIN
  0.2222446058672416, 0.0
END
# S[5,9]
BEGIN
  0.2222122317890012, 0.0
END
# S[6,1]
BEGIN
  0.2222231551971456, 0.0
END
# S[6,2]
BEGIN
  0.2222254197659375, 0.0
END
# S[6,3]
BEGIN
  0.2222248712196562, 0.0
END
# S[6,4]
BEGIN
  0.222215271386478, 0.0
END
# S[6,5]
BEGIN
  0.2222213162780964, 0.0
END
# S[6,6]
BEGIN
  -0.7777518686430156, 0.0
END
# S[6,7]
BEGIN
  0.2222089265195528, 0.0
END
# S[6,8]
BEGIN
  0.2222212483929349, 0.0
END
# S[6,9]
BEGIN
  0.2222116630957238, 0.0
END
# S[7,1]
BEGIN
  0.222194337302828, 0.0
END
# S[7,2]
BEGIN
  0.2222176234334654, 0.0
END
# S[7,3]
BEGIN
  0.2221960530780205, 0.0
END
# S[7,4]
BEGIN
  0.2222048284640739, 0.0
END
# S[7,5]
BEGIN
  0.2222089066017539, 0.0
END
# S[7,6]
BEGIN
  0.2222089265195528, 0.0
END
# S[7,7]
BEGIN
  -0.7776624878835605, 0.0
END
# S[7,8]
BEGIN
  0.222208967504284, 0.0
END
# S[7,9]
BEGIN
  0.2222228481949173, 0.0
END
# S[8,1]
BEGIN
  0.2222074691046458, 0.0
END
# S[8,2]
BEGIN
  0.2222265507347698, 0.0
END
# S[8,3]
BEGIN
  0.2222091849728063, 0.0
END
# S[8,4]
BEGIN
  0.2222168183584028, 0.0
END
# S[8,5]
BEGIN
  0.2222446058672416, 0.0
END
# S[8,6]
BEGIN
  0.2222212483929349, 0.0
END
# S[8,7]
BEGIN
  0.222208967504284, 0.0
END
# S[8,8]
BEGIN
  -0.7777471526536583, 0.0
END
# S[8,9]
BEGIN
  0.2222123109306011, 0.0
END
# S[9,1]
BEGIN
  0.2221968001149736, 0.0
END
# S[9,2]
BEGIN
  0.2222218902660416, 0.0
END
# S[9,3]
BEGIN
  0.2221985159072339, 0.0
END
# S[9,4]
BEGIN
  0.2222083905657426, 0.0
END
# S[9,5]
BEGIN
  0.2222122317890012, 0.0
END
# S[9,6]
BEGIN
  0.2222116630957238, 0.0
END
# S[9,7]
BEGIN
  0.2222228481949173, 0.0
END
# S[9,8]
BEGIN
  0.2222123109306011, 0.0
END
# S[9,9]
BEGIN
  -0.7776846476508581, 0.0
END

# PORTZ[1]
BEGIN
  50, 0.0
END
# PORTZ[2]
BEGIN
  50, 0.0
END
# PORTZ[3]
BEGIN
  50, 0.0
END
# PORTZ[4]
BEGIN
  50, 0.0
END
# PORTZ[5]
BEGIN
  50, 0.0
END
# PORTZ[6]
BEGIN
  50, 0.0
END
# PORTZ[7]
BEGIN
  50, 0.0
END
# PORTZ[8]
BEGIN
  50, 0.0
END
# PORTZ[9]
BEGIN
  50, 0.0
END

